# HZ S RI R 50
1500000000 0.021626728799921054 0.03278925121486501 0.3608518063997771 -1.045200042574252 0 0 0 0
1510000000 0.02120606284996959 0.028257127562228507 0.2835776623663429 -1.0604689829756266 0 0 0 0
1520000000 0.020802791553824862 0.03124973482708075 0.2228611209870262 -1.0603661718100905 0 0 0 0
1530000000 0.02100411436208222 0.03161281275980818 0.13860527980722692 -1.0680157426522092 0 0 0 0
1540000000 0.02197458760446598 0.028127420687136046 0.038105469642776175 -1.0721250186853464 0 0 0 0
1550000000 0.021270209044001485 0.027864912747833107 -0.035758716515403216 -1.0633944830024769 0 0 0 0
1560000000 0.02389273031886259 0.024738170494793606 -0.11579795439520639 -1.0488983241603085 0 0 0 0
1570000000 0.02802144819547912 0.02206373220478223 -0.194219933060256 -1.0352409534265523 0 0 0 0
1580000000 0.024612075031662455 0.01995080588428905 -0.2670893512692255 -1.0050964673662486 0 0 0 0
1590000000 0.02343826482710136 0.017882202843887685 -0.32447797851303417 -0.9857985790399033 0 0 0 0
1600000000 0.021565307936965285 0.013421312106879621 -0.40487944088069394 -0.9466843499940275 0 0 0 0
1610000000 0.023417245777070474 0.011868487358743554 -0.49123744636288624 -0.9003977475692879 0 0 0 0
1620000000 0.022056553473014013 0.011028457549352309 -0.5474723502239204 -0.8663560597030312 0 0 0 0
1630000000 0.017783727696295035 0.00441626039288244 -0.6146838347317344 -0.8119174787019742 0 0 0 0
1640000000 0.014746598051508814 0.00012990554256612832 -0.6719076450945194 -0.7492044074468674 0 0 0 0
1650000000 0.012684069778664396 0.00019000968025878565 -0.7157144185128512 -0.7011314034948409 0 0 0 0
1660000000 0.010549201858430092 0.0020432363375004676 -0.7635022945874206 -0.6215108289380746 0 0 0 0
1670000000 0.009482935840208173 0.0012225366027454293 -0.8048821398406321 -0.5390131267914546 0 0 0 0
1680000000 0.007425417792941516 0.00046926704111877954 -0.8158154352102905 -0.5020671277777549 0 0 0 0
1690000000 0.010910984112653583 -0.0026502311023096736 -0.847605291106602 -0.4153917623951006 0 0 0 0
1700000000 0.011186661113218338 -0.002820093716111766 -0.8637019009303437 -0.36167811340683376 0 0 0 0
1710000000 0.006314664558807528 -0.003233473531459767 -0.8802444657408637 -0.3042310318198468 0 0 0 0
1720000000 0.009663557161967866 -0.006090093458443213 -0.8930923784721416 -0.2280999508766187 0 0 0 0
1730000000 0.00826293237175651 -0.00885000537256478 -0.9063133910509884 -0.1548419691619475 0 0 0 0
1740000000 0.010094254208932849 -0.01168483629584622 -0.9104472462875783 -0.08827360889043355 0 0 0 0
1750000000 0.010936678358516012 -0.012265920787144061 -0.9058847479013628 -0.038022794219215617 0 0 0 0
1760000000 0.010031246724604327 -0.018007063809586176 -0.8974299633244425 0.04266211703563936 0 0 0 0
1770000000 0.01119885668583716 -0.019716344293468566 -0.8831514321568448 0.1107353792463697 0 0 0 0
1780000000 0.0088762725964875 -0.02837154310984214 -0.8620492681387015 0.18318988335984687 0 0 0 0
1790000000 0.008548024550790609 -0.030423009338611445 -0.8405196647514986 0.231754063113362 0 0 0 0
1800000000 0.006780123438318626 -0.027555296411319652 -0.8196109693099508 0.2903269089190636 0 0 0 0
1810000000 0.004626299100845226 -0.03430574808101496 -0.7785015754838999 0.35108481807440856 0 0 0 0
1820000000 0.0013665545651874464 -0.03544346893305853 -0.7447416205493711 0.40180068034413335 0 0 0 0
1830000000 -0.005008337108682249 -0.03500756853504883 -0.718432070293629 0.43297004823397356 0 0 0 0
1840000000 -0.006153788478879023 -0.03727769269951339 -0.6828727238908932 0.49006078261118596 0 0 0 0
1850000000 -0.0032623302282720457 -0.03903801447753122 -0.6566985523989661 0.521925510838233 0 0 0 0
1860000000 -0.012264934606214773 -0.037813015238683134 -0.6265771495075674 0.5614425561018268 0 0 0 0
1870000000 -0.017185131790321693 -0.03701754207608001 -0.5763013682157971 0.6133985760234351 0 0 0 0
1880000000 -0.02412470437361743 -0.03778531582064229 -0.5475240679384868 0.6463407576654946 0 0 0 0
1890000000 -0.01934369175292885 -0.03349678252739151 -0.48813260028362265 0.6985809967838952 0 0 0 0
1900000000 -0.02543888497441381 -0.0346640897331408 -0.44014884232625895 0.7291785939595352 0 0 0 0
1910000000 -0.025642265449519433 -0.030628546582717065 -0.3761004227632351 0.7642477138709795 0 0 0 0
1920000000 -0.02696381904957643 -0.026600422388327025 -0.3080926228811023 0.7987920942282538 0 0 0 0
1930000000 -0.0288832539631239 -0.028172340602359316 -0.25360669007018644 0.819363515233282 0 0 0 0
1940000000 -0.031304409696211295 -0.027777502859277808 -0.16186093234788196 0.8419146431375263 0 0 0 0
1950000000 -0.032554846295542325 -0.028407662153225797 -0.10930666922732539 0.8436503525332435 0 0 0 0
1960000000 -0.03627813011365948 -0.025329357145366233 -0.035060431178213655 0.8470951740518506 0 0 0 0
1970000000 -0.03658154783700119 -0.0261486012603355 0.040500219657884556 0.8331425341919783 0 0 0 0
1980000000 -0.04143915779021678 -0.025334510876110716 0.10060635251070447 0.8266970296508436 0 0 0 0
1990000000 -0.04449766048137735 -0.023645665969021522 0.1554925380702301 0.8076867409821928 0 0 0 0
2000000000 -0.04493013134501745 -0.02302498302558078 0.23290643573969796 0.7763429404081958 0 0 0 0
2010000000 -0.04961324147080532 -0.022243198229148817 0.2715967220987517 0.7567516627282224 0 0 0 0
2020000000 -0.05315183202806641 -0.02098823881226326 0.32882520328150383 0.72399521303415 0 0 0 0
2030000000 -0.057241709329959554 -0.018494628045734082 0.3795238831722436 0.6971158879481021 0 0 0 0
2040000000 -0.054157101805075894 -0.01068063517920708 0.41445996805087754 0.6643567634969908 0 0 0 0
2050000000 -0.05575709752645324 -0.00806689440258284 0.47188073823651216 0.6296170377738789 0 0 0 0
2060000000 -0.058308877112122605 -0.0049475697859074205 0.5314131068773753 0.5780526293869402 0 0 0 0
2070000000 -0.059216095714966416 -0.0006950376312963219 0.5673877680666881 0.5478478705518026 0 0 0 0
2080000000 -0.05727072490603903 0.0017345955266229488 0.5994332692862524 0.5103803841519285 0 0 0 0
2090000000 -0.05612343607606564 -0.001803290713097524 0.6418908780454027 0.4635059025244627 0 0 0 0
2100000000 -0.05739429561333822 0.003741653071322965 0.6699971487804068 0.42319773126018967 0 0 0 0
2110000000 -0.05435432453476357 0.006292812303100613 0.7067727943164597 0.37242695511346013 0 0 0 0
2120000000 -0.04955159852180708 0.007864281358844294 0.7429989432078568 0.299675778663967 0 0 0 0
2130000000 -0.053340558701500056 0.0102440213532663 0.7694310314075495 0.22705111105339196 0 0 0 0
2140000000 -0.05532788508629083 0.008985151797518007 0.7831006437839667 0.181473692777419 0 0 0 0
2150000000 -0.05110871216178879 0.006984648019843626 0.7960509175176168 0.08886374224400233 0 0 0 0
2160000000 -0.051738328880627155 0.005866677760337275 0.7989233270150338 0.026331457321462783 0 0 0 0
2170000000 -0.046842675228666884 0.0063837400175126395 0.7980582666386421 -0.041498047725124575 0 0 0 0
2180000000 -0.049264813734467 0.004507842128596373 0.7906655197305283 -0.10516758800107798 0 0 0 0
2190000000 -0.045886361576639785 0.013285720067088285 0.7679098869931652 -0.19949909846533653 0 0 0 0
2200000000 -0.04891274591715721 0.01285861642063307 0.7405722183762434 -0.26754001221125945 0 0 0 0
2210000000 -0.04954541472704485 0.007813941438807027 0.7171564386805407 -0.3082614310338701 0 0 0 0
2220000000 -0.05129220961022015 0.010495611596705765 0.6682247433724828 -0.3914261322747396 0 0 0 0
2230000000 -0.052809297503680144 0.01301460274884498 0.6237106689617713 -0.4433348839414788 0 0 0 0
2240000000 -0.04718570249692118 0.00994804661642492 0.5861787931809302 -0.4861913652773574 0 0 0 0
2250000000 -0.0507341002786928 0.013434429126538663 0.5334626382389901 -0.5234144496802061 0 0 0 0
2260000000 -0.046846143016007105 0.019465404188635755 0.4648378256521041 -0.5868075545813741 0 0 0 0
2270000000 -0.04736172700340797 0.018114667691560064 0.4228877620533824 -0.6143260904269175 0 0 0 0
2280000000 -0.047211601676120415 0.021473118122994895 0.3397504680551033 -0.6458201647450657 0 0 0 0
2290000000 -0.04485394077290302 0.01906519181971419 0.28158484035218134 -0.6681254491028834 0 0 0 0
2300000000 -0.045102399483058817 0.017630548708573623 0.2165026527273664 -0.6943916457126041 0 0 0 0
2310000000 -0.038735348077070936 0.0263003500354061 0.1635171113697218 -0.7026590867540656 0 0 0 0
2320000000 -0.04302373484603465 0.02963266958536997 0.08611370153205514 -0.7115056580488058 0 0 0 0
2330000000 -0.039112722104959266 0.025353763717238204 0.011304537368256339 -0.7097481698291401 0 0 0 0
2340000000 -0.04086908228331564 0.02904149559237859 -0.04787052572309822 -0.7026308918597637 0 0 0 0
2350000000 -0.04264358869172827 0.032086400947425125 -0.13918043832307242 -0.6763032477138596 0 0 0 0
2360000000 -0.037145130559810856 0.03672618273470652 -0.20449220288539705 -0.6544197545232492 0 0 0 0
2370000000 -0.03413701425345264 0.04016452365310864 -0.2805035196991311 -0.601374883681683 0 0 0 0
2380000000 -0.03049097621167205 0.03921271791505263 -0.33531466150384803 -0.5641902799043736 0 0 0 0
2390000000 -0.026946077006717764 0.0444783425981694 -0.3936676236049608 -0.4897237773627636 0 0 0 0
2400000000 -0.021254977797112908 0.04728914533004104 -0.4185255913127268 -0.4540424104212643 0 0 0 0
2410000000 -0.020015814419678358 0.052166235186389104 -0.45394875311425387 -0.3934912600487385 0 0 0 0
2420000000 -0.008065026058978722 0.046047031725058835 -0.4716122016000742 -0.31865030046149273 0 0 0 0
2430000000 -0.0060328038531359245 0.04585629085363029 -0.4878839800985514 -0.2608215988137394 0 0 0 0
2440000000 0.01441951153404835 0.04725235519454575 -0.49729861468146525 -0.18924681964682588 0 0 0 0
2450000000 0.022467620252372412 0.04341515598238604 -0.4922834216382209 -0.13549342790408878 0 0 0 0
2460000000 0.028876815534836398 0.03716378998089818 -0.485529255537532 -0.06655583355284027 0 0 0 0
2470000000 0.03272451619362063 0.030034184454473995 -0.4676162532969366 -0.019618522553820492 0 0 0 0
2480000000 0.03674747153586238 0.01696026135682503 -0.44854126940833344 0.028253601041696285 0 0 0 0
2490000000 0.03895017347762319 0.005312154373259179 -0.4244932002805693 0.0740595603241465 0 0 0 0
2500000000 0.039964294878596984 -0.004321522306622068 -0.3861102019530693 0.1276037972595428 0 0 0 0
