# HZ S RI R 50
1500000000 -0.06559279790177985 0.04878016914618795 0.015497909356913682 -0.03842873468958835 0 0 0 0
1510000000 -0.06774083139377794 0.049613875720103257 0.013029189126389838 -0.039321448158058506 0 0 0 0
1520000000 -0.06960221480075757 0.055027580629376564 0.00982055722868639 -0.04029902632816397 0 0 0 0
1530000000 -0.07069435537556208 0.060685931102793654 0.007053195478657043 -0.041555358727122946 0 0 0 0
1540000000 -0.07095800030165725 0.06318366622597198 0.0029107040678370945 -0.04242685598152287 0 0 0 0
1550000000 -0.07194698497079277 0.06531689894195161 -0.0003873160910329503 -0.04290881013399507 0 0 0 0
1560000000 -0.069421202106061 0.06696703159497978 -0.0035511344032093835 -0.04291253380962626 0 0 0 0
1570000000 -0.07196789910246058 0.06953015006655008 -0.006666360603105553 -0.04289388513371477 0 0 0 0
1580000000 -0.06459247421878585 0.07190820603856732 -0.009811905829299004 -0.0422007635733414 0 0 0 0
1590000000 -0.07048773411864602 0.07210044503277448 -0.01214526177610515 -0.04159051424993787 0 0 0 0
1600000000 -0.06995043422249111 0.07450482779354231 -0.015587271024409712 -0.0407496304274446 0 0 0 0
1610000000 -0.06473495493470195 0.0789431621101961 -0.01946573175653805 -0.03972322564899714 0 0 0 0
1620000000 -0.06319197345837242 0.08248574444840895 -0.02169384257172101 -0.03893597947643839 0 0 0 0
1630000000 -0.06561754922082848 0.08119944032012594 -0.025406969597277163 -0.03735894397664931 0 0 0 0
1640000000 -0.06470625971567395 0.07913290762469666 -0.028954703539422023 -0.03507822595607084 0 0 0 0
1650000000 -0.06375799256114272 0.08342033640247183 -0.03139683057016834 -0.033370439210796105 0 0 0 0
1660000000 -0.0642965103516104 0.08465955648781077 -0.0338360095806093 -0.029931022136547643 0 0 0 0
1670000000 -0.0621699865233222 0.08608821841220092 -0.036155178419499154 -0.026764458975641666 0 0 0 0
1680000000 -0.062076148275261575 0.08985170135226477 -0.0368071425538262 -0.02579573370861794 0 0 0 0
1690000000 -0.05695563198914026 0.08696760838139132 -0.03829030485934325 -0.02256678981643185 0 0 0 0
1700000000 -0.053582075513719137 0.0879580571241061 -0.04021812279982192 -0.01954008015461278 0 0 0 0
1710000000 -0.05463425243000972 0.08966707254213332 -0.04139033627701591 -0.017343174593001196 0 0 0 0
1720000000 -0.04760481153511922 0.08872272841017693 -0.043015624763874424 -0.013491220487059268 0 0 0 0
1730000000 -0.04462524863684015 0.08657284374262894 -0.04417326244810833 -0.010576941069575005 0 0 0 0
1740000000 -0.03824912169612871 0.08538919575915625 -0.044584865464376885 -0.008106947640197516 0 0 0 0
1750000000 -0.03719341842493373 0.08242499218014288 -0.04544730590558058 -0.00429657641427033 0 0 0 0
1760000000 -0.03260517839607485 0.07926720530512549 -0.04564632568350185 -0.0015936371407159128 0 0 0 0
1770000000 -0.028444567156170525 0.07668150380915219 -0.04611890005585699 0.0014690645411198355 0 0 0 0
1780000000 -0.028029258274438428 0.06986356308364443 -0.04598538264969289 0.0049975453995605365 0 0 0 0
1790000000 -0.026690794663967735 0.06539529613865216 -0.045105417253047383 0.007562153858814798 0 0 0 0
1800000000 -0.027921904611008255 0.06165486436936314 -0.04498883637619431 0.011594765456139702 0 0 0 0
1810000000 -0.027050085854864236 0.059157503247274604 -0.04433038486551749 0.012985731135702557 0 0 0 0
1820000000 -0.027842932558029526 0.05518161053346097 -0.043467105729403814 0.01692466426788252 0 0 0 0
1830000000 -0.027412258151104214 0.05428892724811978 -0.04375260781901882 0.0195896509898573 0 0 0 0
1840000000 -0.0299544958709959 0.04952300152919547 -0.04245777116427077 0.023858436930986965 0 0 0 0
1850000000 -0.02372478809203819 0.04398770553521817 -0.041955113924361735 0.02708719941173406 0 0 0 0
1860000000 -0.02657537869084945 0.04245255584052991 -0.03995557403632315 0.030938611907152365 0 0 0 0
1870000000 -0.030194073479279406 0.03964821008153769 -0.03741079613980534 0.034605912054009424 0 0 0 0
1880000000 -0.03754894154478709 0.03239641087723935 -0.0361689897449116 0.03706852993439554 0 0 0 0
1890000000 -0.029352111028059576 0.03483156077159725 -0.032827935359866604 0.040938023006363726 0 0 0 0
1900000000 -0.03322720575158959 0.031022612940197907 -0.02903606748361374 0.04314118171994973 0 0 0 0
1910000000 -0.03436026080079476 0.029537765086754358 -0.024834130854668377 0.0459008551383967 0 0 0 0
1920000000 -0.03468775348087708 0.02891233749892151 -0.021340527308020656 0.04760127207749086 0 0 0 0
1930000000 -0.03827280469170133 0.025763406221642218 -0.018092671891441797 0.049430046092614754 0 0 0 0
1940000000 -0.04056352684699368 0.021402640022846888 -0.013809474240594574 0.05071908425169111 0 0 0 0
1950000000 -0.044597568170181026 0.02067200115888292 -0.00936835820535453 0.05168506478295789 0 0 0 0
1960000000 -0.04572001593421613 0.01516911355657626 -0.0067854759784601116 0.05228124880444134 0 0 0 0
1970000000 -0.04983279356660594 0.01294242212144047 -0.0008069793483585587 0.05219756616920234 0 0 0 0
1980000000 -0.05744997093270881 0.012531492840453368 0.002489582516013176 0.05209302654516703 0 0 0 0
1990000000 -0.05896131387441227 0.01008276586239681 0.004911349176138419 0.05219208502609804 0 0 0 0
2000000000 -0.06229231119584181 0.008538289795033311 0.010343446694384636 0.05138660026758046 0 0 0 0
2010000000 -0.06843353943642502 0.009005649947571998 0.013033876819383255 0.05108094064389565 0 0 0 0
2020000000 -0.07413537222093776 0.00944230647426685 0.01639012077219954 0.050171347654264085 0 0 0 0
2030000000 -0.08204022820743877 0.008674424452325063 0.01995229174538343 0.049700608944783904 0 0 0 0
2040000000 -0.08592800218608118 0.01355543472401135 0.024044931285468824 0.04810279183716702 0 0 0 0
2050000000 -0.08944073766859721 0.015832513466050736 0.028037865648053766 0.04712684710737295 0 0 0 0
2060000000 -0.09365834254077283 0.019936402419843107 0.03310643474133559 0.044268681621288414 0 0 0 0
2070000000 -0.09834841211384468 0.02109572470595212 0.0369679925351433 0.042077604815523674 0 0 0 0
2080000000 -0.09885037933084334 0.022466469351312513 0.039558424082500716 0.039912681391639546 0 0 0 0
2090000000 -0.10403440598457561 0.02544304350298265 0.04289912185133214 0.03794053112964049 0 0 0 0
2100000000 -0.10537099866529769 0.026245914038155207 0.04651048826140919 0.03434688129176328 0 0 0 0
2110000000 -0.1063686568893353 0.031436283693767074 0.04976648639559116 0.030662058227031733 0 0 0 0
2120000000 -0.10784025900180168 0.03410242231872201 0.05266245398420146 0.026195641893465706 0 0 0 0
2130000000 -0.10876219572561056 0.03565327737599489 0.05564191054014792 0.020548545118224393 0 0 0 0
2140000000 -0.109925820625741 0.036231088424202626 0.05718035268801171 0.016183828978385918 0 0 0 0
2150000000 -0.11073625781243668 0.03552891757317237 0.05807341615052698 0.011820538038096922 0 0 0 0
2160000000 -0.1157923385691957 0.03552016545572729 0.0592274960294052 0.005897624052987342 0 0 0 0
2170000000 -0.11243791306703889 0.03895094127979348 0.060183323146727266 0.0019613584576278105 0 0 0 0
2180000000 -0.11339033486770717 0.04007348838777424 0.06052329712109909 -0.0031276398534837023 0 0 0 0
2190000000 -0.11414979588260137 0.040373470970321824 0.06058664133646627 -0.009255654664234465 0 0 0 0
2200000000 -0.11533194023242714 0.03837033612502062 0.059182179169533694 -0.013668607437016807 0 0 0 0
2210000000 -0.1148057789621667 0.0503876904817684 0.05758787592036324 -0.020744144498134318 0 0 0 0
2220000000 -0.11602206467318299 0.05046441491109777 0.05531903527284159 -0.025268657594191127 0 0 0 0
2230000000 -0.11409922980023626 0.05087490382990449 0.051778331864088256 -0.0314581771613608 0 0 0 0
2240000000 -0.10976641513749591 0.0487300008867989 0.04912249420382661 -0.035147385756829644 0 0 0 0
2250000000 -0.10966350150776967 0.05348776354660077 0.044901523834750656 -0.039188133560329776 0 0 0 0
2260000000 -0.11026621337267578 0.059810956958399004 0.0411754194093652 -0.042738589475080066 0 0 0 0
2270000000 -0.10358602250442066 0.05893584809210798 0.03704137287180722 -0.04711934291219909 0 0 0 0
2280000000 -0.0975371850051218 0.05618225202263901 0.032028119838978235 -0.049720689338253674 0 0 0 0
2290000000 -0.09252829206040246 0.05195061270518487 0.027247716201298452 -0.05170189908584773 0 0 0 0
2300000000 -0.09055578564855832 0.04882486676968061 0.02208425283714627 -0.05372751733786702 0 0 0 0
2310000000 -0.08828140475651253 0.0533773193401449 0.018337022317592117 -0.054977683311524174 0 0 0 0
2320000000 -0.08889120755269969 0.056059313187829585 0.012122452985442223 -0.05704551740142346 0 0 0 0
2330000000 -0.08809338025131429 0.04910143944345509 0.007282221445773148 -0.05726785338468228 0 0 0 0
2340000000 -0.08765121227511466 0.04859759916230493 0.0032160924039755278 -0.05764195211213439 0 0 0 0
2350000000 -0.09297618877982079 0.041733368968326724 -0.005253126942452213 -0.056998536421973035 0 0 0 0
2360000000 -0.08342852616748335 0.03767209810153323 -0.010812961406964599 -0.056012279147667245 0 0 0 0
2370000000 -0.08914043013529444 0.04074173414131304 -0.017276783723880924 -0.054022654521119214 0 0 0 0
2380000000 -0.08517078381819972 0.033736700789450395 -0.021751705440656757 -0.052155852463932555 0 0 0 0
2390000000 -0.08448745589917599 0.03207246408476116 -0.02870341811953152 -0.048372929915672574 0 0 0 0
2400000000 -0.09035277310428429 0.031831056635148236 -0.03306687441495368 -0.044116136931368795 0 0 0 0
2410000000 -0.09234259567136238 0.03089464621463656 -0.03682467957470209 -0.03907734316854898 0 0 0 0
2420000000 -0.08985442904257447 0.02795212192797757 -0.03971002765930128 -0.032440083155446886 0 0 0 0
2430000000 -0.08838533771504174 0.02691842919549523 -0.04309527014687023 -0.02579235536998705 0 0 0 0
2440000000 -0.09055581340416781 0.02640896986095068 -0.04372179429863221 -0.019380514784436306 0 0 0 0
2450000000 -0.09596369251473547 0.020408707910367422 -0.041951008340539796 -0.015545702520766818 0 0 0 0
2460000000 -0.10134980442846765 0.013524254745090024 -0.042001073444902726 -0.007373831935037334 0 0 0 0
2470000000 -0.10548370729521511 0.012685365901688572 -0.039484943214197245 -0.0041829077897032425 0 0 0 0
2480000000 -0.11396972194847206 -0.004199132143780646 -0.03763911152092919 0.00047104648621956963 0 0 0 0
2490000000 -0.1171152661771156 0.006304118153592988 -0.03473318754176471 0.0045032189467363445 0 0 0 0
2500000000 -0.12257509463799712 -0.005877636843370941 -0.0317090541554773 0.0077831858778124674 0 0 0 0
