# HZ S RI R 50
1500000000 -0.06559279790177985 0.04878016914618795
1510000000 -0.06774083139377794 0.049613875720103257
1520000000 -0.06960221480075757 0.055027580629376564
1530000000 -0.07069435537556208 0.060685931102793654
1540000000 -0.07095800030165725 0.06318366622597198
1550000000 -0.07194698497079277 0.06531689894195161
1560000000 -0.069421202106061 0.06696703159497978
1570000000 -0.07196789910246058 0.06953015006655008
1580000000 -0.06459247421878585 0.07190820603856732
1590000000 -0.07048773411864602 0.07210044503277448
1600000000 -0.06995043422249111 0.07450482779354231
1610000000 -0.06473495493470195 0.0789431621101961
1620000000 -0.06319197345837242 0.08248574444840895
1630000000 -0.06561754922082848 0.08119944032012594
1640000000 -0.06470625971567395 0.07913290762469666
1650000000 -0.06375799256114272 0.08342033640247183
1660000000 -0.0642965103516104 0.08465955648781077
1670000000 -0.0621699865233222 0.08608821841220092
1680000000 -0.062076148275261575 0.08985170135226477
1690000000 -0.05695563198914026 0.08696760838139132
1700000000 -0.053582075513719137 0.0879580571241061
1710000000 -0.05463425243000972 0.08966707254213332
1720000000 -0.04760481153511922 0.08872272841017693
1730000000 -0.04462524863684015 0.08657284374262894
1740000000 -0.03824912169612871 0.08538919575915625
1750000000 -0.03719341842493373 0.08242499218014288
1760000000 -0.03260517839607485 0.07926720530512549
1770000000 -0.028444567156170525 0.07668150380915219
1780000000 -0.028029258274438428 0.06986356308364443
1790000000 -0.026690794663967735 0.06539529613865216
1800000000 -0.027921904611008255 0.06165486436936314
1810000000 -0.027050085854864236 0.059157503247274604
1820000000 -0.027842932558029526 0.05518161053346097
1830000000 -0.027412258151104214 0.05428892724811978
1840000000 -0.0299544958709959 0.04952300152919547
1850000000 -0.02372478809203819 0.04398770553521817
1860000000 -0.02657537869084945 0.04245255584052991
1870000000 -0.030194073479279406 0.03964821008153769
1880000000 -0.03754894154478709 0.03239641087723935
1890000000 -0.029352111028059576 0.03483156077159725
1900000000 -0.03322720575158959 0.031022612940197907
1910000000 -0.03436026080079476 0.029537765086754358
1920000000 -0.03468775348087708 0.02891233749892151
1930000000 -0.03827280469170133 0.025763406221642218
1940000000 -0.04056352684699368 0.021402640022846888
1950000000 -0.044597568170181026 0.02067200115888292
1960000000 -0.04572001593421613 0.01516911355657626
1970000000 -0.04983279356660594 0.01294242212144047
1980000000 -0.05744997093270881 0.012531492840453368
1990000000 -0.05896131387441227 0.01008276586239681
2000000000 -0.06229231119584181 0.008538289795033311
2010000000 -0.06843353943642502 0.009005649947571998
2020000000 -0.07413537222093776 0.00944230647426685
2030000000 -0.08204022820743877 0.008674424452325063
2040000000 -0.08592800218608118 0.01355543472401135
2050000000 -0.08944073766859721 0.015832513466050736
2060000000 -0.09365834254077283 0.019936402419843107
2070000000 -0.09834841211384468 0.02109572470595212
2080000000 -0.09885037933084334 0.022466469351312513
2090000000 -0.10403440598457561 0.02544304350298265
2100000000 -0.10537099866529769 0.026245914038155207
2110000000 -0.1063686568893353 0.031436283693767074
2120000000 -0.10784025900180168 0.03410242231872201
2130000000 -0.10876219572561056 0.03565327737599489
2140000000 -0.109925820625741 0.036231088424202626
2150000000 -0.11073625781243668 0.03552891757317237
2160000000 -0.1157923385691957 0.03552016545572729
2170000000 -0.11243791306703889 0.03895094127979348
2180000000 -0.11339033486770717 0.04007348838777424
2190000000 -0.11414979588260137 0.040373470970321824
2200000000 -0.11533194023242714 0.03837033612502062
2210000000 -0.1148057789621667 0.0503876904817684
2220000000 -0.11602206467318299 0.05046441491109777
2230000000 -0.11409922980023626 0.05087490382990449
2240000000 -0.10976641513749591 0.0487300008867989
2250000000 -0.10966350150776967 0.05348776354660077
2260000000 -0.11026621337267578 0.059810956958399004
2270000000 -0.10358602250442066 0.05893584809210798
2280000000 -0.0975371850051218 0.05618225202263901
2290000000 -0.09252829206040246 0.05195061270518487
2300000000 -0.09055578564855832 0.04882486676968061
2310000000 -0.08828140475651253 0.0533773193401449
2320000000 -0.08889120755269969 0.056059313187829585
2330000000 -0.08809338025131429 0.04910143944345509
2340000000 -0.08765121227511466 0.04859759916230493
2350000000 -0.09297618877982079 0.041733368968326724
2360000000 -0.08342852616748335 0.03767209810153323
2370000000 -0.08914043013529444 0.04074173414131304
2380000000 -0.08517078381819972 0.033736700789450395
2390000000 -0.08448745589917599 0.03207246408476116
2400000000 -0.09035277310428429 0.031831056635148236
2410000000 -0.09234259567136238 0.03089464621463656
2420000000 -0.08985442904257447 0.02795212192797757
2430000000 -0.08838533771504174 0.02691842919549523
2440000000 -0.09055581340416781 0.02640896986095068
2450000000 -0.09596369251473547 0.020408707910367422
2460000000 -0.10134980442846765 0.013524254745090024
2470000000 -0.10548370729521511 0.012685365901688572
2480000000 -0.11396972194847206 -0.004199132143780646
2490000000 -0.1171152661771156 0.006304118153592988
2500000000 -0.12257509463799712 -0.005877636843370941
