# HZ S RI R 50
1500000000 0.021626728799921054 0.03278925121486501
1510000000 0.02120606284996959 0.028257127562228507
1520000000 0.020802791553824862 0.03124973482708075
1530000000 0.02100411436208222 0.03161281275980818
1540000000 0.02197458760446598 0.028127420687136046
1550000000 0.021270209044001485 0.027864912747833107
1560000000 0.02389273031886259 0.024738170494793606
1570000000 0.02802144819547912 0.02206373220478223
1580000000 0.024612075031662455 0.01995080588428905
1590000000 0.02343826482710136 0.017882202843887685
1600000000 0.021565307936965285 0.013421312106879621
1610000000 0.023417245777070474 0.011868487358743554
1620000000 0.022056553473014013 0.011028457549352309
1630000000 0.017783727696295035 0.00441626039288244
1640000000 0.014746598051508814 0.00012990554256612832
1650000000 0.012684069778664396 0.00019000968025878565
1660000000 0.010549201858430092 0.0020432363375004676
1670000000 0.009482935840208173 0.0012225366027454293
1680000000 0.007425417792941516 0.00046926704111877954
1690000000 0.010910984112653583 -0.0026502311023096736
1700000000 0.011186661113218338 -0.002820093716111766
1710000000 0.006314664558807528 -0.003233473531459767
1720000000 0.009663557161967866 -0.006090093458443213
1730000000 0.00826293237175651 -0.00885000537256478
1740000000 0.010094254208932849 -0.01168483629584622
1750000000 0.010936678358516012 -0.012265920787144061
1760000000 0.010031246724604327 -0.018007063809586176
1770000000 0.01119885668583716 -0.019716344293468566
1780000000 0.0088762725964875 -0.02837154310984214
1790000000 0.008548024550790609 -0.030423009338611445
1800000000 0.006780123438318626 -0.027555296411319652
1810000000 0.004626299100845226 -0.03430574808101496
1820000000 0.0013665545651874464 -0.03544346893305853
1830000000 -0.005008337108682249 -0.03500756853504883
1840000000 -0.006153788478879023 -0.03727769269951339
1850000000 -0.0032623302282720457 -0.03903801447753122
1860000000 -0.012264934606214773 -0.037813015238683134
1870000000 -0.017185131790321693 -0.03701754207608001
1880000000 -0.02412470437361743 -0.03778531582064229
1890000000 -0.01934369175292885 -0.03349678252739151
1900000000 -0.02543888497441381 -0.0346640897331408
1910000000 -0.025642265449519433 -0.030628546582717065
1920000000 -0.02696381904957643 -0.026600422388327025
1930000000 -0.0288832539631239 -0.028172340602359316
1940000000 -0.031304409696211295 -0.027777502859277808
1950000000 -0.032554846295542325 -0.028407662153225797
1960000000 -0.03627813011365948 -0.025329357145366233
1970000000 -0.03658154783700119 -0.0261486012603355
1980000000 -0.04143915779021678 -0.025334510876110716
1990000000 -0.04449766048137735 -0.023645665969021522
2000000000 -0.04493013134501745 -0.02302498302558078
2010000000 -0.04961324147080532 -0.022243198229148817
2020000000 -0.05315183202806641 -0.02098823881226326
2030000000 -0.057241709329959554 -0.018494628045734082
2040000000 -0.054157101805075894 -0.01068063517920708
2050000000 -0.05575709752645324 -0.00806689440258284
2060000000 -0.058308877112122605 -0.0049475697859074205
2070000000 -0.059216095714966416 -0.0006950376312963219
2080000000 -0.05727072490603903 0.0017345955266229488
2090000000 -0.05612343607606564 -0.001803290713097524
2100000000 -0.05739429561333822 0.003741653071322965
2110000000 -0.05435432453476357 0.006292812303100613
2120000000 -0.04955159852180708 0.007864281358844294
2130000000 -0.053340558701500056 0.0102440213532663
2140000000 -0.05532788508629083 0.008985151797518007
2150000000 -0.05110871216178879 0.006984648019843626
2160000000 -0.051738328880627155 0.005866677760337275
2170000000 -0.046842675228666884 0.0063837400175126395
2180000000 -0.049264813734467 0.004507842128596373
2190000000 -0.045886361576639785 0.013285720067088285
2200000000 -0.04891274591715721 0.01285861642063307
2210000000 -0.04954541472704485 0.007813941438807027
2220000000 -0.05129220961022015 0.010495611596705765
2230000000 -0.052809297503680144 0.01301460274884498
2240000000 -0.04718570249692118 0.00994804661642492
2250000000 -0.0507341002786928 0.013434429126538663
2260000000 -0.046846143016007105 0.019465404188635755
2270000000 -0.04736172700340797 0.018114667691560064
2280000000 -0.047211601676120415 0.021473118122994895
2290000000 -0.04485394077290302 0.01906519181971419
2300000000 -0.045102399483058817 0.017630548708573623
2310000000 -0.038735348077070936 0.0263003500354061
2320000000 -0.04302373484603465 0.02963266958536997
2330000000 -0.039112722104959266 0.025353763717238204
2340000000 -0.04086908228331564 0.02904149559237859
2350000000 -0.04264358869172827 0.032086400947425125
2360000000 -0.037145130559810856 0.03672618273470652
2370000000 -0.03413701425345264 0.04016452365310864
2380000000 -0.03049097621167205 0.03921271791505263
2390000000 -0.026946077006717764 0.0444783425981694
2400000000 -0.021254977797112908 0.04728914533004104
2410000000 -0.020015814419678358 0.052166235186389104
2420000000 -0.008065026058978722 0.046047031725058835
2430000000 -0.0060328038531359245 0.04585629085363029
2440000000 0.01441951153404835 0.04725235519454575
2450000000 0.022467620252372412 0.04341515598238604
2460000000 0.028876815534836398 0.03716378998089818
2470000000 0.03272451619362063 0.030034184454473995
2480000000 0.03674747153586238 0.01696026135682503
2490000000 0.03895017347762319 0.005312154373259179
2500000000 0.039964294878596984 -0.004321522306622068
